
T0DB4 000:035 SEGGER J-Link V6.10i Log File (0000ms, 0016ms total)
T0DB4 000:035 DLL Compiled: Oct 25 2016 19:31:51 (0000ms, 0016ms total)
T0DB4 000:035 Logging started @ 2018-05-16 12:25 (0000ms, 0016ms total)
T0DB4 000:035 JLINK_SetWarnOutHandler(...) (0000ms, 0016ms total)
T0DB4 000:035 JLINK_OpenEx(...)
Firmware: J-Link V10 compiled Feb  2 2018 18:12:40
Hardware: V10.10
S/N: 50109172
Feature(s): GDBWEBSRV Webserver running on local port 19080 (0011ms, 0027ms total)
T0DB4 000:035   returns O.K. (0011ms, 0027ms total)
T0DB4 000:046 JLINK_SetErrorOutHandler(...) (0000ms, 0027ms total)
T0DB4 000:046 JLINK_ExecCommand("ProjectFile = "C:\CODE\_MultyProj\FLM\test\FLM_Test_VE1\JLinkSettings.ini"", ...). Device "CORTEX-M1" selected.  returns 0x00 (0079ms, 0106ms total)
T0DB4 000:125 JLINK_ExecCommand("Device = ARMCM0", ...). Device "CORTEX-M0" selected.  returns 0x00 (0001ms, 0107ms total)
T0DB4 000:126 JLINK_ExecCommand("DisableConnectionTimeout", ...).   returns 0x01 (0000ms, 0107ms total)
T0DB4 000:126 JLINK_GetHardwareVersion()  returns 0x18A88 (0000ms, 0107ms total)
T0DB4 000:126 JLINK_GetDLLVersion()  returns 61009 (0000ms, 0107ms total)
T0DB4 000:126 JLINK_GetFirmwareString(...) (0000ms, 0107ms total)
T0DB4 000:126 JLINK_GetDLLVersion()  returns 61009 (0000ms, 0107ms total)
T0DB4 000:126 JLINK_GetCompileDateTime() (0000ms, 0107ms total)
T0DB4 000:126 JLINK_GetFirmwareString(...) (0000ms, 0107ms total)
T0DB4 000:126 JLINK_GetHardwareVersion()  returns 0x18A88 (0000ms, 0107ms total)
T0DB4 000:126 JLINK_TIF_Select(JLINKARM_TIF_SWD)  returns 0x00 (0000ms, 0107ms total)
T0DB4 000:126 JLINK_SetSpeed(2000) (0000ms, 0107ms total)
T0DB4 000:126 JLINK_GetId() >0x108 TIF>Found SWD-DP with ID 0x2BA01477 >0x0D TIF> >0x28 TIF> >0x0D TIF> >0x28 TIF> >0x0D TIF> >0x28 TIF> >0x0D TIF> >0x28 TIF> >0x0D TIF> >0x21 TIF> >0x0D TIF> >0x28 TIF> >0x0D TIF> >0x28 TIF> >0x0D TIF> >0x21 TIF> >0x0D TIF> >0x21 TIF> >0x0D TIF> >0x21 TIF>AP-IDR: 0x44770001, Type: AHB-AP >0x0D TIF> >0x28 TIF> >0x0D TIF> >0x28 TIF> >0x0D TIF> >0x28 TIF> >0x0D TIF> >0x21 TIF> >0x0D TIF> >0x21 TIF> >0x0D TIF> >0x28 TIF> >0x0D TIF> >0x21 TIF> >0x0D TIF> >0x21 TIF>
Found Cortex-M1 r1p0, Little endian.Identified core does not match configuration. (Found: Cortex-M1, Configured: Cortex-M0) -- CPU_ReadMem(4 bytes @ 0xE000EDF0) -- CPU_WriteMem(4 bytes @ 0xE000EDF0) -- CPU_ReadMem(4 bytes @ 0xE0002000)FPUnit: 4 code (BP) slots and 0 literal slots -- CPU_ReadMem(4 bytes @ 0xE000EDFC) -- CPU_WriteMem(4 bytes @ 0xE000EDFC) -- CPU_ReadMem(4 bytes @ 0xE0001000) -- CPU_WriteMem(4 bytes @ 0xE0001000)CoreSight components:ROMTbl 0 @ E00FF000 -- CPU_ReadMem(16 bytes @ 0xE00FF000)
 -- CPU_ReadMem(16 bytes @ 0xE000EFF0) -- CPU_ReadMem(16 bytes @ 0xE000EFE0)ROMTbl 0 [0]: FFF0F000, CID: 00000000, PID: 00000000 ??? -- CPU_ReadMem(16 bytes @ 0xE0001FF0) -- CPU_ReadMem(16 bytes @ 0xE0001FE0)ROMTbl 0 [1]: FFF02000, CID: 00000000, PID: 00000000 ??? -- CPU_ReadMem(16 bytes @ 0xE0002FF0) -- CPU_ReadMem(16 bytes @ 0xE0002FE0)ROMTbl 0 [2]: FFF03000, CID: 00000000, PID: 00000000 ??? >0x0D TIF> >0x21 TIF>  returns 0x2BA01477 (0016ms, 0123ms total)
T0DB4 000:142 JLINK_GetDLLVersion()  returns 61009 (0000ms, 0123ms total)
T0DB4 000:142 JLINK_CORE_GetFound()  returns 0x10000FF (0000ms, 0123ms total)
T0DB4 000:142 JLINK_GetDebugInfo(0x100) -- Value=0xE00FF000  returns 0x00 (0000ms, 0123ms total)
T0DB4 000:142 JLINK_GetDebugInfo(0x100) -- Value=0xE00FF000  returns 0x00 (0000ms, 0123ms total)
T0DB4 000:142 JLINK_GetDebugInfo(0x101) -- Value=0x00000000  returns 0x00 (0000ms, 0123ms total)
T0DB4 000:142 JLINK_ReadMem (0xE0041FF0, 0x0010 Bytes, ...) -- CPU is running -- CPU_ReadMem(16 bytes @ 0xE0041FF0) - Data: 00 00 00 00 00 00 00 00 00 00 00 00 00 00 00 00  returns 0x00 (0000ms, 0123ms total)
T0DB4 000:142 JLINK_GetDebugInfo(0x102) -- Value=0x00000000  returns 0x00 (0000ms, 0123ms total)
T0DB4 000:142 JLINK_GetDebugInfo(0x103) -- Value=0x00000000  returns 0x00 (0000ms, 0123ms total)
T0DB4 000:142 JLINK_ReadMem (0xE0040FF0, 0x0010 Bytes, ...) -- CPU is running -- CPU_ReadMem(16 bytes @ 0xE0040FF0) - Data: 00 00 00 00 00 00 00 00 00 00 00 00 00 00 00 00  returns 0x00 (0001ms, 0124ms total)
T0DB4 000:143 JLINK_GetDebugInfo(0x104) -- Value=0xE0000000  returns 0x00 (0000ms, 0124ms total)
T0DB4 000:143 JLINK_GetDebugInfo(0x105) -- Value=0xE0001000  returns 0x00 (0000ms, 0124ms total)
T0DB4 000:143 JLINK_GetDebugInfo(0x106) -- Value=0xE0002000  returns 0x00 (0000ms, 0124ms total)
T0DB4 000:143 JLINK_GetDebugInfo(0x107) -- Value=0xE000E000  returns 0x00 (0000ms, 0124ms total)
T0DB4 000:143 JLINK_GetDebugInfo(0x10C) -- Value=0xE000EDF0  returns 0x00 (0000ms, 0124ms total)
T0DB4 000:143 JLINK_ReadMemU32(0xE000ED00, 0x0001 Items, ...) -- CPU is running -- CPU_ReadMem(4 bytes @ 0xE000ED00) - Data: 10 C2 1C 41  returns 0x01 (0000ms, 0124ms total)
T0DB4 000:143 JLINK_SetResetType(JLINKARM_RESET_TYPE_ADI)  returns JLINKARM_RESET_TYPE_NORMAL (0000ms, 0124ms total)
T0DB4 000:143 JLINK_Reset() -- CPU is running -- CPU_WriteMem(4 bytes @ 0xE000EDF0) -- CPU is running -- CPU_WriteMem(4 bytes @ 0xE000EDFC)T-bit of XPSR is 0 but should be 1. Changed to 1. -- CPU_WriteMem(4 bytes @ 0xE000EDF0) -- CPU_WriteMem(4 bytes @ 0xE000EDFC) -- CPU_ReadMem(4 bytes @ 0xE000EDF0) -- CPU_WriteMem(4 bytes @ 0xE000EDFC) -- CPU_WriteMem(4 bytes @ 0xE000ED0C) -- CPU_ReadMem(4 bytes @ 0xE000EDF0) -- CPU_ReadMem(4 bytes @ 0xE000EDF0) -- CPU_WriteMem(4 bytes @ 0xE000EDF0)
 -- CPU_WriteMem(4 bytes @ 0xE000EDFC) -- CPU is running -- CPU_ReadMem(4 bytes @ 0xE000EDF0)T-bit of XPSR is 0 but should be 1. Changed to 1. -- CPU_WriteMem(4 bytes @ 0xE0002000) -- CPU_ReadMem(4 bytes @ 0xE000EDFC) -- CPU_ReadMem(4 bytes @ 0xE0001000) -- CPU_WriteMem(4 bytes @ 0xE0001000) (0154ms, 0278ms total)
T0DB4 000:297 JLINK_ReadReg(R15 (PC))  returns 0x0000FFF8 (0000ms, 0278ms total)
T0DB4 000:297 JLINK_ReadReg(XPSR)  returns 0x01000000 (0000ms, 0278ms total)
T0DB4 000:297 JLINK_Halt()  returns 0x00 (0000ms, 0278ms total)
T0DB4 000:297 JLINK_IsHalted()  returns TRUE (0000ms, 0278ms total)
T0DB4 000:297 JLINK_ReadMemU32(0xE000EDF0, 0x0001 Items, ...) -- CPU_ReadMem(4 bytes @ 0xE000EDF0) - Data: 03 00 03 00  returns 0x01 (0001ms, 0279ms total)
T0DB4 000:298 JLINK_WriteU32(0xE000EDF0, 0xA05F0003) -- CPU_WriteMem(4 bytes @ 0xE000EDF0)  returns 0x00 (0001ms, 0280ms total)
T0DB4 000:299 JLINK_WriteU32(0xE000EDFC, 0x01000000) -- CPU_WriteMem(4 bytes @ 0xE000EDFC)  returns 0x00 (0000ms, 0280ms total)
T0DB4 000:299 JLINK_GetHWStatus(...)  returns 0x00 (0001ms, 0281ms total)
T0DB4 000:300 JLINK_GetNumBPUnits(Type = 0xFFFFFF00)  returns 0x04 (0000ms, 0281ms total)
T0DB4 000:300 JLINK_GetNumBPUnits(Type = 0xF0)  returns 0x2000 (0000ms, 0281ms total)
T0DB4 000:300 JLINK_GetNumWPUnits()  returns 0x02 (0000ms, 0281ms total)
T0DB4 000:300 JLINK_GetSpeed()  returns 0x7D0 (0000ms, 0281ms total)
T0DB4 000:300 JLINK_ReadMemU32(0xE000E004, 0x0001 Items, ...) -- CPU_ReadMem(4 bytes @ 0xE000E004) - Data: 00 00 00 00  returns 0x01 (0001ms, 0282ms total)
T0DB4 000:301 JLINK_ReadReg(R15 (PC))  returns 0x0000FFF8 (0000ms, 0282ms total)
T0DB4 000:301 JLINK_ReadReg(XPSR)  returns 0x01000000 (0000ms, 0282ms total)
T0DB4 000:326 JLINK_WriteMem(0x20100000, 0x0400 Bytes, ...) - Data: 68 20 00 20 65 01 10 20 6D 01 10 20 6F 01 10 20 ... -- CPU_WriteMem(1024 bytes @ 0x20100000)  returns 0x400 (0007ms, 0289ms total)
T0DB4 000:333 JLINK_WriteMem(0x20100400, 0x0400 Bytes, ...) - Data: 03 FF 01 20 40 03 04 43 58 48 04 60 58 48 FF F7 ... -- CPU_WriteMem(1024 bytes @ 0x20100400)  returns 0x400 (0007ms, 0296ms total)
T0DB4 000:340 JLINK_WriteMem(0x20100800, 0x0098 Bytes, ...) - Data: 78 B5 03 46 0C 46 15 46 2E 46 A4 08 00 22 0B E0 ... -- CPU_WriteMem(152 bytes @ 0x20100800)  returns 0x98 (0002ms, 0298ms total)
T0DB4 000:398 JLINK_SetResetType(JLINKARM_RESET_TYPE_ADI)  returns JLINKARM_RESET_TYPE_ADI (0000ms, 0298ms total)
T0DB4 000:398 JLINK_Reset() -- CPU_ReadMem(4 bytes @ 0x20100800) -- CPU_WriteMem(4 bytes @ 0x20100800) -- CPU_WriteMem(4 bytes @ 0xE000EDF0) -- CPU_WriteMem(4 bytes @ 0xE000EDFC)T-bit of XPSR is 0 but should be 1. Changed to 1. -- CPU_WriteMem(4 bytes @ 0xE000EDF0) -- CPU_WriteMem(4 bytes @ 0xE000EDFC) -- CPU_ReadMem(4 bytes @ 0xE000EDF0) -- CPU_WriteMem(4 bytes @ 0xE000EDFC) -- CPU_WriteMem(4 bytes @ 0xE000ED0C) -- CPU_ReadMem(4 bytes @ 0xE000EDF0) -- CPU_ReadMem(4 bytes @ 0xE000EDF0)
 -- CPU_WriteMem(4 bytes @ 0xE000EDF0) -- CPU_WriteMem(4 bytes @ 0xE000EDFC) -- CPU is running -- CPU_ReadMem(4 bytes @ 0xE000EDF0)T-bit of XPSR is 0 but should be 1. Changed to 1. -- CPU_WriteMem(4 bytes @ 0xE0002000) -- CPU_ReadMem(4 bytes @ 0xE000EDFC) -- CPU_ReadMem(4 bytes @ 0xE0001000) -- CPU_WriteMem(4 bytes @ 0xE0001000) (0156ms, 0454ms total)
T0DB4 000:554 JLINK_ReadReg(R15 (PC))  returns 0x0000FFF8 (0000ms, 0454ms total)
T0DB4 000:554 JLINK_ReadReg(XPSR)  returns 0x01000000 (0000ms, 0454ms total)
T0DB4 000:554 JLINK_ReadMem (0x0000FFF8, 0x0008 Bytes, ...) -- CPU_ReadMem(8 bytes @ 0x0000FFF8) - Data: F8 FF 00 00 F8 FF 00 00  returns 0x00 (0001ms, 0455ms total)
T0DB4 000:555 JLINK_ReadMem (0x00010000, 0x0034 Bytes, ...) -- CPU_ReadMem(52 bytes @ 0x00010000) - Data: F8 FF 00 00 F8 FF 00 00 F8 FF 00 00 F8 FF 00 00 ...  returns 0x00 (0001ms, 0456ms total)
T0DB4 001:767 JLINK_ReadMem (0x20100000, 0x0004 Bytes, ...) -- CPU_ReadMem(4 bytes @ 0x20100000) - Data: 68 20 00 20  returns 0x00 (0000ms, 0456ms total)
T0DB4 001:767 JLINK_WriteReg(R13 (SP), 0x20002068)  returns 0x00 (0000ms, 0456ms total)
T0DB4 001:767 JLINK_ReadReg(R0)  returns 0x00000880 (0001ms, 0457ms total)
T0DB4 001:768 JLINK_ReadReg(R1)  returns 0x400D8000 (0000ms, 0457ms total)
T0DB4 001:768 JLINK_ReadReg(R2)  returns 0x00000000 (0000ms, 0457ms total)
T0DB4 001:768 JLINK_ReadReg(R3)  returns 0x00000275 (0000ms, 0457ms total)
T0DB4 001:768 JLINK_ReadReg(R4)  returns 0x00000648 (0000ms, 0457ms total)
T0DB4 001:768 JLINK_ReadReg(R5)  returns 0x00000001 (0000ms, 0457ms total)
T0DB4 001:768 JLINK_ReadReg(R6)  returns 0x00000648 (0000ms, 0457ms total)
T0DB4 001:768 JLINK_ReadReg(R7)  returns 0x00000064 (0000ms, 0457ms total)
T0DB4 001:768 JLINK_ReadReg(R8)  returns 0x68A0E182 (0000ms, 0457ms total)
T0DB4 001:768 JLINK_ReadReg(R9)  returns 0x3FD26002 (0000ms, 0457ms total)
T0DB4 001:768 JLINK_ReadReg(R10)  returns 0xF55AC382 (0000ms, 0457ms total)
T0DB4 001:768 JLINK_ReadReg(R11)  returns 0x46B22BAA (0000ms, 0457ms total)
T0DB4 001:768 JLINK_ReadReg(R12)  returns 0x62C380A2 (0000ms, 0457ms total)
T0DB4 001:768 JLINK_ReadReg(R13 (SP))  returns 0x20002068 (0000ms, 0457ms total)
T0DB4 001:768 JLINK_ReadReg(R14)  returns 0xFFFFFFFF (0000ms, 0457ms total)
T0DB4 001:768 JLINK_ReadReg(R15 (PC))  returns 0x0000FFF8 (0000ms, 0457ms total)
T0DB4 001:768 JLINK_ReadReg(XPSR)  returns 0x01000000 (0000ms, 0457ms total)
T0DB4 001:768 JLINK_ReadReg(MSP)  returns 0x20002068 (0000ms, 0457ms total)
T0DB4 001:768 JLINK_ReadReg(PSP)  returns 0x00000000 (0000ms, 0457ms total)
T0DB4 001:768 JLINK_ReadReg(CFBP)  returns 0x00000000 (0000ms, 0457ms total)
T0DB4 001:768 JLINK_ReadMem (0x20100004, 0x0004 Bytes, ...) -- CPU_ReadMem(4 bytes @ 0x20100004) - Data: 65 01 10 20  returns 0x00 (0000ms, 0457ms total)
T0DB4 001:768 JLINK_WriteReg(R15 (PC), 0x20100164)  returns 0x00 (0000ms, 0457ms total)
T0DB4 001:768 JLINK_ReadReg(R0)  returns 0x00000880 (0000ms, 0457ms total)
T0DB4 001:768 JLINK_ReadReg(R1)  returns 0x400D8000 (0000ms, 0457ms total)
T0DB4 001:768 JLINK_ReadReg(R2)  returns 0x00000000 (0000ms, 0457ms total)
T0DB4 001:768 JLINK_ReadReg(R3)  returns 0x00000275 (0000ms, 0457ms total)
T0DB4 001:768 JLINK_ReadReg(R4)  returns 0x00000648 (0000ms, 0457ms total)
T0DB4 001:768 JLINK_ReadReg(R5)  returns 0x00000001 (0000ms, 0457ms total)
T0DB4 001:768 JLINK_ReadReg(R6)  returns 0x00000648 (0000ms, 0457ms total)
T0DB4 001:768 JLINK_ReadReg(R7)  returns 0x00000064 (0000ms, 0457ms total)
T0DB4 001:768 JLINK_ReadReg(R8)  returns 0x68A0E182 (0000ms, 0457ms total)
T0DB4 001:768 JLINK_ReadReg(R9)  returns 0x3FD26002 (0000ms, 0457ms total)
T0DB4 001:768 JLINK_ReadReg(R10)  returns 0xF55AC382 (0000ms, 0457ms total)
T0DB4 001:768 JLINK_ReadReg(R11)  returns 0x46B22BAA (0000ms, 0457ms total)
T0DB4 001:768 JLINK_ReadReg(R12)  returns 0x62C380A2 (0000ms, 0457ms total)
T0DB4 001:768 JLINK_ReadReg(R13 (SP))  returns 0x20002068 (0001ms, 0458ms total)
T0DB4 001:769 JLINK_ReadReg(R14)  returns 0xFFFFFFFF (0000ms, 0458ms total)
T0DB4 001:769 JLINK_ReadReg(R15 (PC))  returns 0x20100164 (0000ms, 0458ms total)
T0DB4 001:769 JLINK_ReadReg(XPSR)  returns 0x01000000 (0000ms, 0458ms total)
T0DB4 001:769 JLINK_ReadReg(MSP)  returns 0x20002068 (0000ms, 0458ms total)
T0DB4 001:769 JLINK_ReadReg(PSP)  returns 0x00000000 (0000ms, 0458ms total)
T0DB4 001:769 JLINK_ReadReg(CFBP)  returns 0x00000000 (0000ms, 0458ms total)
T1820 001:775 JLINK_SetBPEx(Addr = 0x20100834, Type = 0xFFFFFFF2) -- CPU_ReadMem(4 bytes @ 0x20100834) -- CPU_WriteMem(4 bytes @ 0x20100834) -- CPU_ReadMem(4 bytes @ 0x20100834) -- CPU_WriteMem(4 bytes @ 0x20100834) -- CPU_ReadMem(2 bytes @ 0x20100834)  returns 0x00000001 (0002ms, 0460ms total)
T1820 001:777 JLINK_Go() -- CPU_WriteMem(2 bytes @ 0x20100834) -- CPU_ReadMem(4 bytes @ 0xE0001000) -- CPU_WriteMem(4 bytes @ 0xE0001000) -- CPU_WriteMem(4 bytes @ 0xE0002008) -- CPU_WriteMem(4 bytes @ 0xE000200C) -- CPU_WriteMem(4 bytes @ 0xE0002010) -- CPU_WriteMem(4 bytes @ 0xE0002014) -- CPU_WriteMem(4 bytes @ 0xE0001004) (0003ms, 0463ms total)
T1820 001:880 JLINK_IsHalted() -- CPU_ReadMem(2 bytes @ 0x20100834)  returns TRUE (0003ms, 0466ms total)
T1820 001:883 JLINK_Halt()  returns 0x00 (0000ms, 0463ms total)
T1820 001:883 JLINK_IsHalted()  returns TRUE (0000ms, 0463ms total)
T1820 001:883 JLINK_IsHalted()  returns TRUE (0000ms, 0463ms total)
T1820 001:883 JLINK_IsHalted()  returns TRUE (0000ms, 0463ms total)
T1820 001:883 JLINK_ReadReg(R15 (PC))  returns 0x20100834 (0000ms, 0463ms total)
T1820 001:883 JLINK_ReadReg(XPSR)  returns 0x01000000 (0000ms, 0463ms total)
T1820 001:883 JLINK_ClrBPEx(BPHandle = 0x00000001)  returns 0x00 (0000ms, 0463ms total)
T1820 001:883 JLINK_ReadMemU32(0xE000ED30, 0x0001 Items, ...) -- CPU_ReadMem(4 bytes @ 0xE000ED30) - Data: 02 00 00 00  returns 0x01 (0000ms, 0463ms total)
T1820 001:883 JLINK_ReadMemU32(0xE0001028, 0x0001 Items, ...) -- CPU_ReadMem(4 bytes @ 0xE0001028) - Data: 00 00 00 00  returns 0x01 (0001ms, 0464ms total)
T1820 001:884 JLINK_ReadMemU32(0xE0001038, 0x0001 Items, ...) -- CPU_ReadMem(4 bytes @ 0xE0001038) - Data: 00 00 00 00  returns 0x01 (0000ms, 0464ms total)
T1820 001:884 JLINK_ReadReg(R0)  returns 0x20001068 (0000ms, 0464ms total)
T1820 001:884 JLINK_ReadReg(R1)  returns 0x20001C68 (0000ms, 0464ms total)
T1820 001:884 JLINK_ReadReg(R2)  returns 0x20001C68 (0000ms, 0464ms total)
T1820 001:884 JLINK_ReadReg(R3)  returns 0x20001C68 (0000ms, 0464ms total)
T1820 001:884 JLINK_ReadReg(R4)  returns 0x20100894 (0000ms, 0464ms total)
T1820 001:884 JLINK_ReadReg(R5)  returns 0x20001004 (0000ms, 0464ms total)
T1820 001:884 JLINK_ReadReg(R6)  returns 0x00000000 (0000ms, 0464ms total)
T1820 001:884 JLINK_ReadReg(R7)  returns 0x00000000 (0000ms, 0464ms total)
T1820 001:884 JLINK_ReadReg(R8)  returns 0x68A0E182 (0000ms, 0464ms total)
T1820 001:884 JLINK_ReadReg(R9)  returns 0x3FD26002 (0000ms, 0464ms total)
T1820 001:884 JLINK_ReadReg(R10)  returns 0x20100894 (0000ms, 0464ms total)
T1820 001:884 JLINK_ReadReg(R11)  returns 0x20100894 (0000ms, 0464ms total)
T1820 001:884 JLINK_ReadReg(R12)  returns 0x62C380A2 (0000ms, 0464ms total)
T1820 001:884 JLINK_ReadReg(R13 (SP))  returns 0x20002068 (0000ms, 0464ms total)
T1820 001:884 JLINK_ReadReg(R14)  returns 0x20100153 (0000ms, 0464ms total)
T1820 001:884 JLINK_ReadReg(R15 (PC))  returns 0x20100834 (0000ms, 0464ms total)
T1820 001:884 JLINK_ReadReg(XPSR)  returns 0x01000000 (0000ms, 0464ms total)
T1820 001:884 JLINK_ReadReg(MSP)  returns 0x20002068 (0000ms, 0464ms total)
T1820 001:884 JLINK_ReadReg(PSP)  returns 0x00000000 (0000ms, 0464ms total)
T1820 001:884 JLINK_ReadReg(CFBP)  returns 0x00000000 (0000ms, 0464ms total)
T0DB4 001:917 JLINK_ReadMem (0x20100832, 0x0002 Bytes, ...) -- CPU_ReadMem(64 bytes @ 0x20100800) -- Updating DA cache (64 bytes @ 0x20100800) -- Read from DA cache (2 bytes @ 0x20100832) - Data: 78 BD  returns 0x00 (0001ms, 0465ms total)
T0DB4 001:918 JLINK_ReadMem (0x20100834, 0x003C Bytes, ...) -- CPU_ReadMem(64 bytes @ 0x20100840) -- Updating DA cache (64 bytes @ 0x20100840) -- Read from DA cache (60 bytes @ 0x20100834) -- Merging zombie BP[0]: 0xB508 @ 0x20100834 - Data: 08 B5 01 25 00 24 02 E0 0C 49 0C 55 64 1C 01 20 ...  returns 0x00 (0001ms, 0466ms total)
T1820 004:491 JLINK_SetBPEx(Addr = 0x20100824, Type = 0xFFFFFFF2) -- CPU_ReadMem(4 bytes @ 0x20100824) -- CPU_WriteMem(4 bytes @ 0x20100824) -- CPU_ReadMem(4 bytes @ 0x20100824) -- CPU_WriteMem(4 bytes @ 0x20100824) -- CPU_ReadMem(2 bytes @ 0x20100824)  returns 0x00000002 (0003ms, 0469ms total)
T1820 004:494 JLINK_SetBPEx(Addr = 0x20100596, Type = 0xFFFFFFF2) -- CPU_ReadMem(4 bytes @ 0x20100596) -- CPU_WriteMem(4 bytes @ 0x20100596) -- CPU_ReadMem(4 bytes @ 0x20100596) -- CPU_WriteMem(4 bytes @ 0x20100596) -- CPU_ReadMem(2 bytes @ 0x20100596)  returns 0x00000003 (0002ms, 0471ms total)
T1820 004:496 JLINK_SetBPEx(Addr = 0x2010086A, Type = 0xFFFFFFF2) -- CPU_ReadMem(4 bytes @ 0x2010086A) -- CPU_WriteMem(4 bytes @ 0x2010086A) -- CPU_ReadMem(4 bytes @ 0x2010086A) -- CPU_WriteMem(4 bytes @ 0x2010086A) -- CPU_ReadMem(2 bytes @ 0x2010086A)  returns 0x00000004 (0003ms, 0474ms total)
T1820 004:499 JLINK_Go() -- CPU_WriteMem(2 bytes @ 0x20100596) -- CPU_WriteMem(2 bytes @ 0x20100824) -- CPU_WriteMem(2 bytes @ 0x2010086A) -- CPU_ReadMem(2 bytes @ 0x20100834) -- CPU_WriteMem(2 bytes @ 0x20100834) -- CPU_ReadMem(4 bytes @ 0xE0001000) -- CPU_WriteMem(4 bytes @ 0xE0001000) (0003ms, 0477ms total)
T1820 004:602 JLINK_IsHalted()  returns FALSE (0000ms, 0477ms total)
T1820 004:702 JLINK_IsHalted()  returns FALSE (0000ms, 0477ms total)
T1820 004:802 JLINK_IsHalted()  returns FALSE (0000ms, 0477ms total)
T1820 004:903 JLINK_IsHalted()  returns FALSE (0000ms, 0477ms total)
T1820 005:003 JLINK_IsHalted()  returns FALSE (0000ms, 0477ms total)
T1820 005:103 JLINK_IsHalted()  returns FALSE (0000ms, 0477ms total)
T1820 005:203 JLINK_IsHalted() -- CPU_ReadMem(2 bytes @ 0x20100824) -- CPU_ReadMem(2 bytes @ 0x20100596) -- CPU_ReadMem(2 bytes @ 0x2010086A)  returns TRUE (0006ms, 0483ms total)
T1820 005:209 JLINK_Halt()  returns 0x00 (0000ms, 0477ms total)
T1820 005:209 JLINK_IsHalted()  returns TRUE (0000ms, 0477ms total)
T1820 005:209 JLINK_IsHalted()  returns TRUE (0000ms, 0477ms total)
T1820 005:209 JLINK_IsHalted()  returns TRUE (0000ms, 0477ms total)
T1820 005:209 JLINK_ReadReg(R15 (PC))  returns 0x20100596 (0000ms, 0477ms total)
T1820 005:209 JLINK_ReadReg(XPSR)  returns 0x01000000 (0000ms, 0477ms total)
T1820 005:209 JLINK_ClrBPEx(BPHandle = 0x00000002)  returns 0x00 (0000ms, 0477ms total)
T1820 005:209 JLINK_ClrBPEx(BPHandle = 0x00000003)  returns 0x00 (0000ms, 0477ms total)
T1820 005:209 JLINK_ClrBPEx(BPHandle = 0x00000004)  returns 0x00 (0000ms, 0477ms total)
T1820 005:209 JLINK_ReadMemU32(0xE000ED30, 0x0001 Items, ...) -- CPU_ReadMem(4 bytes @ 0xE000ED30) - Data: 02 00 00 00  returns 0x01 (0001ms, 0478ms total)
T1820 005:210 JLINK_ReadMemU32(0xE0001028, 0x0001 Items, ...) -- CPU_ReadMem(4 bytes @ 0xE0001028) - Data: 00 00 00 00  returns 0x01 (0001ms, 0479ms total)
T1820 005:211 JLINK_ReadMemU32(0xE0001038, 0x0001 Items, ...) -- CPU_ReadMem(4 bytes @ 0xE0001038) - Data: 00 00 00 00  returns 0x01 (0001ms, 0480ms total)
T1820 005:212 JLINK_ReadReg(R0)  returns 0x20002060 (0000ms, 0480ms total)
T1820 005:212 JLINK_ReadReg(R1)  returns 0xFFFFFFFF (0000ms, 0480ms total)
T1820 005:212 JLINK_ReadReg(R2)  returns 0x00000000 (0000ms, 0480ms total)
T1820 005:212 JLINK_ReadReg(R3)  returns 0x00000000 (0000ms, 0480ms total)
T1820 005:212 JLINK_ReadReg(R4)  returns 0x00020000 (0000ms, 0480ms total)
T1820 005:212 JLINK_ReadReg(R5)  returns 0x000000FF (0000ms, 0480ms total)
T1820 005:212 JLINK_ReadReg(R6)  returns 0x00000000 (0000ms, 0480ms total)
T1820 005:212 JLINK_ReadReg(R7)  returns 0x00000000 (0000ms, 0480ms total)
T1820 005:212 JLINK_ReadReg(R8)  returns 0x68A0E182 (0000ms, 0480ms total)
T1820 005:212 JLINK_ReadReg(R9)  returns 0x3FD26002 (0000ms, 0480ms total)
T1820 005:212 JLINK_ReadReg(R10)  returns 0x20100894 (0000ms, 0480ms total)
T1820 005:212 JLINK_ReadReg(R11)  returns 0x20100894 (0000ms, 0480ms total)
T1820 005:212 JLINK_ReadReg(R12)  returns 0x62C380A2 (0001ms, 0481ms total)
T1820 005:213 JLINK_ReadReg(R13 (SP))  returns 0x20002040 (0000ms, 0481ms total)
T1820 005:213 JLINK_ReadReg(R14)  returns 0x2010058B (0000ms, 0481ms total)
T1820 005:213 JLINK_ReadReg(R15 (PC))  returns 0x20100596 (0000ms, 0481ms total)
T1820 005:213 JLINK_ReadReg(XPSR)  returns 0x01000000 (0000ms, 0481ms total)
T1820 005:213 JLINK_ReadReg(MSP)  returns 0x20002040 (0000ms, 0481ms total)
T1820 005:213 JLINK_ReadReg(PSP)  returns 0x00000000 (0000ms, 0481ms total)
T1820 005:213 JLINK_ReadReg(CFBP)  returns 0x00000001 (0000ms, 0481ms total)
T0DB4 005:216 JLINK_ReadMem (0x2010058C, 0x003C Bytes, ...) -- CPU_ReadMem(128 bytes @ 0x20100580) -- Updating DA cache (128 bytes @ 0x20100580) -- Read from DA cache (60 bytes @ 0x2010058C) -- Merging zombie BP[1]: 0x2001 @ 0x20100596 - Data: 00 21 C9 43 00 98 88 42 01 D0 01 20 38 BD 12 1D ...  returns 0x00 (0002ms, 0483ms total)
T0DB4 089:866 JLINK_Close() -- CPU_ReadMem(2 bytes @ 0x20100824) -- CPU_ReadMem(2 bytes @ 0x20100596) -- CPU_ReadMem(2 bytes @ 0x2010086A) -- CPU_WriteMem(2 bytes @ 0x20100596) -- CPU_WriteMem(2 bytes @ 0x20100824) -- CPU_WriteMem(2 bytes @ 0x2010086A) -- CPU_ReadMem(4 bytes @ 0xE0001000) -- CPU_WriteMem(4 bytes @ 0xE0001000) >0x0D TIF> >0x28 TIF> >0x0D TIF> >0x28 TIF> >0x0D TIF> >0x28 TIF> >0x0D TIF> >0x28 TIF> >0x0D TIF> >0x28 TIF> >0x0D TIF> >0x28 TIF> >0x0D TIF> >0x28 TIF> >0x0D TIF> >0x28 TIF>
 >0x0D TIF> >0x21 TIF> >0x0D TIF> >0x28 TIF> (0024ms, 0507ms total)
T0DB4 089:866  (0024ms, 0507ms total)
T0DB4 089:866 Closed (0024ms, 0507ms total)
